
**** 05/15/22 01:48:35 ******* PSpice 17.4.0 (Nov 2018) ******* ID# 0 ********

 ** Profile: "SCHEMATIC1-simulare"  [ C:\Users\Body_\Desktop\An 2\UTCN-ETTI SEM II\CAD\Proiect Termometru\OrcadTermometru_Final\termo


 ****     CIRCUIT DESCRIPTION


******************************************************************************




** Creating circuit file "simulare.cir" 
** WARNING: THIS AUTOMATICALLY GENERATED FILE MAY BE OVERWRITTEN BY SUBSEQUENT SIMULATIONS

*Libraries: 
* Profile Libraries :
* Local Libraries :
* From [PSPICE NETLIST] section of C:\SPB_Data\cdssetup\OrCAD_PSpice\17.4.0\PSpice.ini file:
.lib "C:\Users\Body_\Desktop\An 2\UTCN-ETTI SEM II\CAD\Proiect Termometru\LEDS\LedOrange.lib" 
.lib "C:\Users\Body_\Desktop\An 2\UTCN-ETTI SEM II\CAD\Proiect Termometru\LEDS\LedYellow.lib" 
.lib "C:\Users\Body_\Desktop\An 2\UTCN-ETTI SEM II\CAD\Proiect Termometru\LEDS\LedRed.lib" 
.lib "C:\Users\Body_\Desktop\An 2\UTCN-ETTI SEM II\CAD\Proiect Termometru\LEDS\LedGreen.lib" 
.lib "C:\Users\Body_\Desktop\An 2\UTCN-ETTI SEM II\CAD\Proiect Termometru\LEDS\LedBlue.lib" 
.lib "nom.lib" 

*Analysis directives: 
.TRAN  0 1000ns 0 
.OPTIONS ADVCONV
.PROBE64 V(alias(*)) I(alias(*)) W(alias(*)) D(alias(*)) NOISE(alias(*)) 
.INC "..\SCHEMATIC1.net" 



**** INCLUDING SCHEMATIC1.net ****
* source TERMOMETRU
R_R6         N41698 0  2k TC=0,0 
X_U5B         VREF N42162 VCC -VCC N42162 TL082
R_R29         0 N43290  1k TC=0,0 
R_R18         N43524 VCC  665 TC=0,0 
R_R30         N42646 VCC  665 TC=0,0 
R_R4         N41606 N41698  1k TC=0,0 
R_R28         N43290 VCC  1.3k TC=0,0 
V_V1         VCC 0 15
R_R33         0 N43580  1k TC=0,0 
R_R1         VTH VCC  27.4k TC=0,0 
X_U4B         VOUT1 N42184 VCC -VCC N418664 TL082
R_R12         0 N42184  1k TC=0,0 
D_D5          N436260 N435424 Diode_Red 
X_U9B         N42646 VOUT1 VCC -VCC OUT4 TL082
R_R16         0 N43156  1k TC=0,0 
V_V2         -VCC 0 -15
X_U8B         VOUT1 N43524 VCC -VCC N433684 TL082
X_U13B         VOUT1 N43580 VCC -VCC N435424 TL082
X_U7B         N43090 VOUT1 VCC -VCC OUT3 TL082
R_R2         VREF VCC  14k TC=0,0 
R_R19         0 N43524  1k TC=0,0 
R_R27         0 N42472  1k TC=0,0 
D_D2          N427680 N426864 Diode_Green 
X_U12B         N43290 VOUT1 VCC -VCC OUT5 TL082
X_U10B         VOUT1 N42836 VCC -VCC N426864 TL082
R_R22         0 N42836  1k TC=0,0 
X_U1A         VTH N41606 VCC -VCC N41606 TL082
R_R15         N43156 VCC  1.3k TC=0,0 
R_RNTC         0 VTH  {Rntc} TC=0,0 
R_R24         N43090 VCC  301 TC=0,0 
R_R26         N42472 VCC  261 TC=0,0 
R_R13         OUT1 N419780  634 TC=0,0 
R_R10         0 VTH  47.5k TC=0,0 
R_R25         0 N43090  1k TC=0,0 
R_R7         N42170 VOUT1  2k TC=0,0 
R_R3         0 VREF  1k TC=0,0 
R_R14         OUT2 N427680  681 TC=0,0 
D_D3          N434380 N433684 yellowDiode 
R_R5         N42162 N42170  1k TC=0,0 
R_R23         OUT4 N430380  681 TC=0,0 
D_D1          N419780 N418664 Diode_Blue 
R_R20         OUT3 N434380  665 TC=0,0 
R_R11         N42184 VCC  261 TC=0,0 
R_R21         N42836 VCC  301 TC=0,0 
R_R17         OUT5 N436260  665 TC=0,0 
R_R31         0 N42646  1k TC=0,0 
D_D4          N430380 N429424 Diode_Orange 
X_U3A         N41698 N42170 VCC -VCC VOUT1 TL082
X_U11B         VOUT1 N43156 VCC -VCC N429424 TL082
X_U6B         N42472 VOUT1 VCC -VCC OUT2 TL082
R_R32         N43580 VCC  6.34k TC=0,0 
X_U2B         VCC VOUT1 VCC -VCC OUT1 TL082
.PARAM  rntc=47.5k

**** RESUMING simulare.cir ****
.END

**** 05/15/22 01:48:35 ******* PSpice 17.4.0 (Nov 2018) ******* ID# 0 ********

 ** Profile: "SCHEMATIC1-simulare"  [ C:\Users\Body_\Desktop\An 2\UTCN-ETTI SEM II\CAD\Proiect Termometru\OrcadTermometru_Final\termo


 ****     Diode MODEL PARAMETERS


******************************************************************************




               Diode_Orange    yellowDiode     Diode_Red       Diode_Green     
          IS   14.843000E-09  457.360000E-15   10.000000E-21  171.180000E-12 
           N    4.995           2.5364          1.7199          3.6712       
         ISR                                                  100.000000E-12 
         IKF                                                  998.05         
          BV                                                  100            
         IBV                                                  100.000000E-06 
          RS   16.331           4.18            9.5315         17.961        
          TT                                                    5.000000E-09 
         CJO                                                    1.000000E-12 
          VJ                                                     .75         
           M                                                     .3333       


               Diode_Blue      X_U5B.dx        X_U5B.dy        X_U4B.dx        
          IS    7.170600E-12  800.000000E-18  800.000000E-18  800.000000E-18 
           N    4.995                                                        
          RS   16.774                           1.000000E-03                 
         CJO                                   10.000000E-12                 


               X_U4B.dy        X_U9B.dx        X_U9B.dy        X_U8B.dx        
          IS  800.000000E-18  800.000000E-18  800.000000E-18  800.000000E-18 
          RS    1.000000E-03                    1.000000E-03                 
         CJO   10.000000E-12                   10.000000E-12                 


               X_U8B.dy        X_U13B.dx       X_U13B.dy       X_U7B.dx        
          IS  800.000000E-18  800.000000E-18  800.000000E-18  800.000000E-18 
          RS    1.000000E-03                    1.000000E-03                 
         CJO   10.000000E-12                   10.000000E-12                 


               X_U7B.dy        X_U12B.dx       X_U12B.dy       X_U10B.dx       
          IS  800.000000E-18  800.000000E-18  800.000000E-18  800.000000E-18 
          RS    1.000000E-03                    1.000000E-03                 
         CJO   10.000000E-12                   10.000000E-12                 


               X_U10B.dy       X_U1A.dx        X_U1A.dy        X_U3A.dx        
          IS  800.000000E-18  800.000000E-18  800.000000E-18  800.000000E-18 
          RS    1.000000E-03                    1.000000E-03                 
         CJO   10.000000E-12                   10.000000E-12                 


               X_U3A.dy        X_U11B.dx       X_U11B.dy       X_U6B.dx        
          IS  800.000000E-18  800.000000E-18  800.000000E-18  800.000000E-18 
          RS    1.000000E-03                    1.000000E-03                 
         CJO   10.000000E-12                   10.000000E-12                 


               X_U6B.dy        X_U2B.dx        X_U2B.dy        
          IS  800.000000E-18  800.000000E-18  800.000000E-18 
          RS    1.000000E-03                    1.000000E-03 
         CJO   10.000000E-12                   10.000000E-12 


**** 05/15/22 01:48:35 ******* PSpice 17.4.0 (Nov 2018) ******* ID# 0 ********

 ** Profile: "SCHEMATIC1-simulare"  [ C:\Users\Body_\Desktop\An 2\UTCN-ETTI SEM II\CAD\Proiect Termometru\OrcadTermometru_Final\termo


 ****     Junction FET MODEL PARAMETERS


******************************************************************************




               X_U5B.jx1       X_U5B.jx2       X_U4B.jx1       X_U4B.jx2       
               NJF             NJF             NJF             NJF             
         VTO   -1              -1              -1              -1            
        BETA  222.070000E-06  222.070000E-06  222.070000E-06  222.070000E-06 
          IS  100.000000E-12  100.000000E-12  100.000000E-12  100.000000E-12 


               X_U9B.jx1       X_U9B.jx2       X_U8B.jx1       X_U8B.jx2       
               NJF             NJF             NJF             NJF             
         VTO   -1              -1              -1              -1            
        BETA  222.070000E-06  222.070000E-06  222.070000E-06  222.070000E-06 
          IS  100.000000E-12  100.000000E-12  100.000000E-12  100.000000E-12 


               X_U13B.jx1      X_U13B.jx2      X_U7B.jx1       X_U7B.jx2       
               NJF             NJF             NJF             NJF             
         VTO   -1              -1              -1              -1            
        BETA  222.070000E-06  222.070000E-06  222.070000E-06  222.070000E-06 
          IS  100.000000E-12  100.000000E-12  100.000000E-12  100.000000E-12 


               X_U12B.jx1      X_U12B.jx2      X_U10B.jx1      X_U10B.jx2      
               NJF             NJF             NJF             NJF             
         VTO   -1              -1              -1              -1            
        BETA  222.070000E-06  222.070000E-06  222.070000E-06  222.070000E-06 
          IS  100.000000E-12  100.000000E-12  100.000000E-12  100.000000E-12 


               X_U1A.jx1       X_U1A.jx2       X_U3A.jx1       X_U3A.jx2       
               NJF             NJF             NJF             NJF             
         VTO   -1              -1              -1              -1            
        BETA  222.070000E-06  222.070000E-06  222.070000E-06  222.070000E-06 
          IS  100.000000E-12  100.000000E-12  100.000000E-12  100.000000E-12 


               X_U11B.jx1      X_U11B.jx2      X_U6B.jx1       X_U6B.jx2       
               NJF             NJF             NJF             NJF             
         VTO   -1              -1              -1              -1            
        BETA  222.070000E-06  222.070000E-06  222.070000E-06  222.070000E-06 
          IS  100.000000E-12  100.000000E-12  100.000000E-12  100.000000E-12 


               X_U2B.jx1       X_U2B.jx2       
               NJF             NJF             
         VTO   -1              -1            
        BETA  222.070000E-06  222.070000E-06 
          IS  100.000000E-12  100.000000E-12 


**** 05/15/22 01:48:35 ******* PSpice 17.4.0 (Nov 2018) ******* ID# 0 ********

 ** Profile: "SCHEMATIC1-simulare"  [ C:\Users\Body_\Desktop\An 2\UTCN-ETTI SEM II\CAD\Proiect Termometru\OrcadTermometru_Final\termo


 ****     INITIAL TRANSIENT SOLUTION       TEMPERATURE =   27.000 DEG C


******************************************************************************



 NODE   VOLTAGE     NODE   VOLTAGE     NODE   VOLTAGE     NODE   VOLTAGE


(  VCC)   15.0000  (  VTH)    6.9648  ( -VCC)  -15.0000  ( OUT1)   13.5000      

( OUT2)  -13.5000  ( OUT3)  -13.5010  ( OUT4)  -13.5010  ( OUT5)  -13.5010      

( VREF)    1.0000  (VOUT1)   11.9290  (N41606)    6.9645 (N41698)    4.6430     

(N42162)     .9999 (N42170)    4.6428 (N42184)   11.8950 (N42472)   11.8950     

(N42646)    9.0090 (N42836)   11.5300 (N43090)   11.5300 (N43156)    6.5217     

(N43290)    6.5217 (N43524)    9.0090 (N43580)    2.0436 (N418664)   13.5000    

(N419780)   13.5000                   (N426864)   13.5010                       

(N427680)  -13.5000                   (N429424)   13.5010                       

(N430380)  -13.5010                   (N433684)   13.5010                       

(N434380)  -13.5010                   (N435424)   13.5010                       

(N436260)  -13.5010                   (X_U1A.6)-673.3E-06                       

(X_U1A.7)    7.0806                   (X_U1A.8)    7.0806                       

(X_U1A.9)    0.0000                   (X_U2B.6)   -5.0582                       

(X_U2B.7)   15.5330                   (X_U2B.8)   15.5330                       

(X_U2B.9)    0.0000                   (X_U3A.6)    -.0012                       

(X_U3A.7)   12.1110                   (X_U3A.8)   12.1110                       

(X_U3A.9)    0.0000                   (X_U4B.6)    -.8996                       

(X_U4B.7)   15.5300                   (X_U4B.8)   15.5300                       

(X_U4B.9)    0.0000                   (X_U5B.6)-67.77E-06                       

(X_U5B.7)     .8178                   (X_U5B.8)     .8178                       

(X_U5B.9)    0.0000                   (X_U6B.6)     .9228                       

(X_U6B.7)  -15.5300                   (X_U6B.8)  -15.5300                       

(X_U6B.9)    0.0000                   (X_U7B.6)   10.3780                       

(X_U7B.7)  -15.5340                   (X_U7B.8)  -15.5340                       

(X_U7B.9)    0.0000                   (X_U8B.6)  -16.9540                       

(X_U8B.7)   15.5340                   (X_U8B.8)   15.5340                       

(X_U8B.9)    0.0000                   (X_U9B.6)   16.9760                       

(X_U9B.7)  -15.5340                   (X_U9B.8)  -15.5340                       

(X_U9B.9)    0.0000                   (X_U10B.6)  -10.3550                      

(X_U10B.7)   15.5340                  (X_U10B.8)   15.5340                      

(X_U10B.9)    0.0000                  (X_U11B.6)  -16.9540                      

(X_U11B.7)   15.5340                  (X_U11B.8)   15.5340                      

(X_U11B.9)    0.0000                  (X_U12B.6)   16.9760                      

(X_U12B.7)  -15.5340                  (X_U12B.8)  -15.5340                      

(X_U12B.9)    0.0000                  (X_U13B.6)  -16.9540                      

(X_U13B.7)   15.5340                  (X_U13B.8)   15.5340                      

(X_U13B.9)    0.0000                  (X_U1A.10)    7.3535                      

(X_U1A.11)   14.5600                  (X_U1A.12)   14.5600                      

(X_U1A.53)   12.6840                  (X_U1A.54)  -12.6840                      

(X_U1A.90)    2.3215                  (X_U1A.91)   40.0000                      

(X_U1A.92)  -40.0000                  (X_U1A.99)    0.0000                      

(X_U2B.10)   14.6380                  (X_U2B.11)   15.0000                      

(X_U2B.12)   14.7310                  (X_U2B.53)   12.6840                      

(X_U2B.54)  -12.6840                  (X_U2B.90)   40.6430                      

(X_U2B.91)   40.0000                  (X_U2B.92)  -40.0000                      

(X_U2B.99)    0.0000                  (X_U3A.10)    5.0352                      

(X_U3A.11)   14.5650                  (X_U3A.12)   14.5650                      

(X_U3A.53)   12.6840                  (X_U3A.54)  -12.6840                      

(X_U3A.90)    3.6429                  (X_U3A.91)   40.0000                      

(X_U3A.92)  -40.0000                  (X_U3A.99)    0.0000                      

(X_U4B.10)   12.2940                  (X_U4B.11)   14.5740                      

(X_U4B.12)   14.5250                  (X_U4B.53)   12.6840                      

(X_U4B.54)  -12.6840                  (X_U4B.90)   40.5960                      

(X_U4B.91)   40.0000                  (X_U4B.92)  -40.0000                      

(X_U4B.99)    0.0000                  (X_U5B.10)    1.3977                      

(X_U5B.11)   14.5730                  (X_U5B.12)   14.5730                      

(X_U5B.53)   12.6840                  (X_U5B.54)  -12.6840                      

(X_U5B.90)   -3.6429                  (X_U5B.91)   40.0000                      

(X_U5B.92)  -40.0000                  (X_U5B.99)    0.0000                      

(X_U6B.10)   12.2940                  (X_U6B.11)   14.5250                      

(X_U6B.12)   14.5740                  (X_U6B.53)   12.6840                      

(X_U6B.54)  -12.6840                  (X_U6B.90)  -40.5970                      

(X_U6B.91)   40.0000                  (X_U6B.92)  -40.0000                      

(X_U6B.99)    0.0000                  (X_U7B.10)   12.1440                      

(X_U7B.11)   14.2750                  (X_U7B.12)   14.8250                      

(X_U7B.53)   12.6840                  (X_U7B.54)  -12.6840                      

(X_U7B.90)  -40.6620                  (X_U7B.91)   40.0000                      

(X_U7B.92)  -40.0000                  (X_U7B.99)    0.0000                      

(X_U8B.10)   12.0540                  (X_U8B.11)   15.0000                      

(X_U8B.12)   14.1000                  (X_U8B.53)   12.6840                      

(X_U8B.54)  -12.6840                  (X_U8B.90)   40.6750                      

(X_U8B.91)   40.0000                  (X_U8B.92)  -40.0000                      

(X_U8B.99)    0.0000                  (X_U9B.10)   12.0540                      

(X_U9B.11)   14.1000                  (X_U9B.12)   15.0000                      

(X_U9B.53)   12.6840                  (X_U9B.54)  -12.6840                      

(X_U9B.90)  -40.6750                  (X_U9B.91)   40.0000                      

(X_U9B.92)  -40.0000                  (X_U9B.99)    0.0000                      

(X_U10B.10)   12.1440                 (X_U10B.11)   14.8250                     

(X_U10B.12)   14.2750                 (X_U10B.53)   12.6840                     

(X_U10B.54)  -12.6840                 (X_U10B.90)   40.6620                     

(X_U10B.91)   40.0000                 (X_U10B.92)  -40.0000                     

(X_U10B.99)    0.0000                 (X_U11B.10)   12.0540                     

(X_U11B.11)   15.0000                 (X_U11B.12)   14.1000                     

(X_U11B.53)   12.6840                 (X_U11B.54)  -12.6840                     

(X_U11B.90)   40.6750                 (X_U11B.91)   40.0000                     

(X_U11B.92)  -40.0000                 (X_U11B.99)    0.0000                     

(X_U12B.10)   12.0540                 (X_U12B.11)   14.1000                     

(X_U12B.12)   15.0000                 (X_U12B.53)   12.6840                     

(X_U12B.54)  -12.6840                 (X_U12B.90)  -40.6750                     

(X_U12B.91)   40.0000                 (X_U12B.92)  -40.0000                     

(X_U12B.99)    0.0000                 (X_U13B.10)   12.0540                     

(X_U13B.11)   15.0000                 (X_U13B.12)   14.1000                     

(X_U13B.53)   12.6840                 (X_U13B.54)  -12.6840                     

(X_U13B.90)   40.6750                 (X_U13B.91)   40.0000                     

(X_U13B.92)  -40.0000                 (X_U13B.99)    0.0000                 




    VOLTAGE SOURCE CURRENTS
    NAME         CURRENT

    V_V1        -1.342E-01
    V_V2         1.341E-01
    X_U5B.vb    -6.777E-10
    X_U5B.vc     1.169E-11
    X_U5B.ve     1.542E-11
    X_U5B.vlim  -3.643E-03
    X_U5B.vlp   -4.364E-11
    X_U5B.vln   -3.636E-11
    X_U4B.vb    -8.996E-06
    X_U4B.vc    -4.060E-02
    X_U4B.ve     2.792E-11
    X_U4B.vlim   4.060E-02
    X_U4B.vlp    8.108E-06
    X_U4B.vln   -8.060E-11
    X_U9B.vb     1.698E-04
    X_U9B.vc     2.619E-11
    X_U9B.ve    -4.067E-02
    X_U9B.vlim  -4.067E-02
    X_U9B.vlp   -8.068E-11
    X_U9B.vln    1.706E-04
    X_U8B.vb    -1.695E-04
    X_U8B.vc    -4.067E-02
    X_U8B.ve     2.792E-11
    X_U8B.vlim   4.067E-02
    X_U8B.vlp    1.703E-04
    X_U8B.vln   -8.068E-11
    X_U13B.vb   -1.695E-04
    X_U13B.vc   -4.067E-02
    X_U13B.ve    2.792E-11
    X_U13B.vlim   4.067E-02
    X_U13B.vlp   1.703E-04
    X_U13B.vln  -8.068E-11
    X_U7B.vb     1.038E-04
    X_U7B.vc     2.619E-11
    X_U7B.ve    -4.066E-02
    X_U7B.vlim  -4.066E-02
    X_U7B.vlp   -8.066E-11
    X_U7B.vln    1.039E-04
    X_U12B.vb    1.698E-04
    X_U12B.vc    2.619E-11
    X_U12B.ve   -4.067E-02
    X_U12B.vlim  -4.067E-02
    X_U12B.vlp  -8.068E-11
    X_U12B.vln   1.706E-04
    X_U10B.vb   -1.036E-04
    X_U10B.vc   -4.066E-02
    X_U10B.ve    2.792E-11
    X_U10B.vlim   4.066E-02
